T10CC 167:117 SEGGER J-Link V6.46k Log File (0001ms, 12635ms total)
T10CC 167:117 DLL Compiled: Jul 22 2019 10:49:32 (0001ms, 12635ms total)
T10CC 167:117 Logging started @ 2020-06-12 14:00 (0001ms, 12635ms total)
T10CC 167:118 JLINK_SetWarnOutHandler(...) (0000ms, 12635ms total)
T10CC 167:118 JLINK_OpenEx(...)
Firmware: J-Link V9 compiled May 17 2019 09:50:41
Hardware: V9.20
Feature(s): RDI, GDB, FlashDL, FlashBP, JFlash, RDDI
TELNET listener socket opened on port 19021WEBSRV 
Starting webserver (0050ms, 12685ms total)
T10CC 167:118 WEBSRV Webserver running on local port 19080 (0050ms, 12685ms total)
T10CC 167:118   returns O.K. (0050ms, 12685ms total)
T10CC 167:169 JLINK_GetEmuCaps()  returns 0xB9FF7BBF (0000ms, 12685ms total)
T10CC 167:169 JLINK_TIF_GetAvailable(...) (0001ms, 12686ms total)
T10CC 167:170 JLINK_SetErrorOutHandler(...) (0000ms, 12686ms total)
T10CC 167:170 JLINK_ExecCommand("ProjectFile = "G:\00 WorkSpace\04IVD_SW_Development\Modules\Camera\01-SrcCode\STM32_HOST_UVC_Camera-master\HAL_source\stm32F4_discovery_project\MDK\JLinkSettings.ini"", ...).   returns 0x00 (0002ms, 12688ms total)
T10CC 167:172 JLINK_ExecCommand("Device = STM32F407ZGTx", ...). Device "STM32F407ZG" selected.  returns 0x00 (0002ms, 12690ms total)
T10CC 167:174 JLINK_ExecCommand("DisableConnectionTimeout", ...).   returns 0x01 (0000ms, 12690ms total)
T10CC 167:174 JLINK_GetHardwareVersion()  returns 0x16760 (0000ms, 12690ms total)
T10CC 167:174 JLINK_GetDLLVersion()  returns 64611 (0000ms, 12690ms total)
T10CC 167:174 JLINK_GetFirmwareString(...) (0000ms, 12690ms total)
T10CC 167:174 JLINK_GetDLLVersion()  returns 64611 (0000ms, 12690ms total)
T10CC 167:174 JLINK_GetCompileDateTime() (0000ms, 12690ms total)
T10CC 167:174 JLINK_GetFirmwareString(...) (0000ms, 12690ms total)
T10CC 167:174 JLINK_GetHardwareVersion()  returns 0x16760 (0000ms, 12690ms total)
T10CC 167:174 JLINK_TIF_Select(JLINKARM_TIF_SWD)  returns 0x00 (0004ms, 12694ms total)
T10CC 167:178 JLINK_SetSpeed(5000) (0001ms, 12695ms total)
T10CC 167:179 JLINK_GetId() >0x10B TIF>Found SW-DP with ID 0x2BA01477 >0x0D TIF> >0x28 TIF> >0x0D TIF> >0x28 TIF> >0x0D TIF> >0x28 TIF> >0x0D TIF> >0x28 TIF> >0x0D TIF> >0x21 TIF> >0x0D TIF> >0x28 TIF> >0x0D TIF> >0x28 TIF> >0x0D TIF> >0x28 TIF> >0x0D TIF> >0x21 TIF> >0x0D TIF> >0x21 TIF> >0x0D TIF> >0x28 TIF> >0x0D TIF> >0x21 TIF> >0x0D TIF> >0x21 TIF> >0x0D TIF> >0x28 TIF> >0x0D TIF> >0x21 TIF> >0x0D TIF> >0x21 TIF> >0x0D TIF> >0x28 TIF> >0x0D TIF> >0x21 TIF> >0x0D TIF> >0x21 TIF> >0x0D TIF> >0x28 TIF>
 >0x0D TIF> >0x21 TIF> >0x0D TIF> >0x21 TIF> >0x0D TIF> >0x28 TIF> >0x0D TIF> >0x21 TIF> >0x0D TIF> >0x21 TIF> >0x10B TIF>Found SW-DP with ID 0x2BA01477 >0x0D TIF> >0x28 TIF> >0x0D TIF> >0x28 TIF> >0x0D TIF> >0x28 TIF> >0x0D TIF> >0x28 TIF> >0x0D TIF> >0x21 TIF> >0x0D TIF> >0x28 TIF>Scanning AP map to find all available APs >0x0D TIF> >0x28 TIF> >0x0D TIF> >0x21 TIF> >0x0D TIF> >0x21 TIF> >0x0D TIF> >0x28 TIF> >0x0D TIF> >0x21 TIF> >0x0D TIF> >0x21 TIF>
AP[1]: Stopped AP scan as end of AP map has been reachedAP[0]: AHB-AP (IDR: 0x24770011)Iterating through AP map to find AHB-AP to use >0x42 TIF> >0x28 TIF> >0x0D TIF> >0x28 TIF> >0x0D TIF> >0x21 TIF> >0x0D TIF> >0x21 TIF> >0x42 TIF> >0x28 TIF> >0x0D TIF> >0x28 TIF> >0x0D TIF> >0x28 TIF> >0x0D TIF> >0x21 TIF> >0x0D TIF> >0x21 TIF>AP[0]: Core foundAP[0]: AHB-AP ROM base: 0xE00FF000 >0x0D TIF> >0x28 TIF> >0x0D TIF> >0x28 TIF> >0x0D TIF> >0x28 TIF> >0x0D TIF> >0x21 TIF> >0x0D TIF> >0x21 TIF>
CPUID register: 0x410FC241. Implementer code: 0x41 (ARM)Found Cortex-M4 r0p1, Little endian. -- Max. mem block: 0x00010F28 -- CPU_ReadMem(4 bytes @ 0xE000EDF0) -- CPU_WriteMem(4 bytes @ 0xE000EDF0) -- CPU_ReadMem(4 bytes @ 0xE0002000)FPUnit: 6 code (BP) slots and 2 literal slots -- CPU_ReadMem(4 bytes @ 0xE000EDFC) -- CPU_WriteMem(4 bytes @ 0xE000EDFC) -- CPU_ReadMem(4 bytes @ 0xE0001000) -- CPU_WriteMem(4 bytes @ 0xE0001000) -- CPU_ReadMem(4 bytes @ 0xE000ED88) -- CPU_WriteMem(4 bytes @ 0xE000ED88)
 -- CPU_ReadMem(4 bytes @ 0xE000ED88) -- CPU_WriteMem(4 bytes @ 0xE000ED88)CoreSight components:ROMTbl[0] @ E00FF000 -- CPU_ReadMem(16 bytes @ 0xE00FF000) -- CPU_ReadMem(16 bytes @ 0xE000EFF0) -- CPU_ReadMem(16 bytes @ 0xE000EFE0)ROMTbl[0][0]: E000E000, CID: B105E00D, PID: 000BB00C SCS-M7 -- CPU_ReadMem(16 bytes @ 0xE0001FF0) -- CPU_ReadMem(16 bytes @ 0xE0001FE0)ROMTbl[0][1]: E0001000, CID: B105E00D, PID: 003BB002 DWT -- CPU_ReadMem(16 bytes @ 0xE0002FF0) -- CPU_ReadMem(16 bytes @ 0xE0002FE0)
ROMTbl[0][2]: E0002000, CID: B105E00D, PID: 002BB003 FPB -- CPU_ReadMem(16 bytes @ 0xE0000FF0) -- CPU_ReadMem(16 bytes @ 0xE0000FE0)ROMTbl[0][3]: E0000000, CID: B105E00D, PID: 003BB001 ITM -- CPU_ReadMem(16 bytes @ 0xE00FF010) -- CPU_ReadMem(16 bytes @ 0xE0040FF0) -- CPU_ReadMem(16 bytes @ 0xE0040FE0)ROMTbl[0][4]: E0040000, CID: B105900D, PID: 000BB9A1 TPIU -- CPU_ReadMem(16 bytes @ 0xE0041FF0) -- CPU_ReadMem(16 bytes @ 0xE0041FE0)ROMTbl[0][5]: E0041000, CID: B105900D, PID: 000BB925 ETM >0x0D TIF>
 >0x21 TIF>  returns 0x2BA01477 (0239ms, 12934ms total)
T10CC 167:418 JLINK_GetDLLVersion()  returns 64611 (0000ms, 12934ms total)
T10CC 167:418 JLINK_CORE_GetFound()  returns 0xE0000FF (0000ms, 12934ms total)
T10CC 167:418 JLINK_GetDebugInfo(0x100 = JLINKARM_ROM_TABLE_ADDR_INDEX) -- Value=0xE00FF000  returns 0x00 (0000ms, 12934ms total)
T10CC 167:418 JLINK_GetDebugInfo(0x100 = JLINKARM_ROM_TABLE_ADDR_INDEX) -- Value=0xE00FF000  returns 0x00 (0000ms, 12934ms total)
T10CC 167:418 JLINK_GetDebugInfo(0x101 = JLINKARM_DEBUG_INFO_ETM_ADDR_INDEX) -- Value=0xE0041000  returns 0x00 (0000ms, 12934ms total)
T10CC 167:418 JLINK_ReadMemEx(0xE0041FD0, 0x0020 Bytes, ..., Flags = 0x02000004) -- CPU_ReadMem(32 bytes @ 0xE0041FD0) - Data: 04 00 00 00 00 00 00 00 00 00 00 00 00 00 00 00 ...  returns 0x20 (0001ms, 12935ms total)
T10CC 167:419 JLINK_GetDebugInfo(0x102 = JLINKARM_DEBUG_INFO_MTB_ADDR_INDEX) -- Value=0x00000000  returns 0x00 (0000ms, 12935ms total)
T10CC 167:419 JLINK_GetDebugInfo(0x103 = JLINKARM_DEBUG_INFO_TPIU_ADDR_INDEX) -- Value=0xE0040000  returns 0x00 (0000ms, 12935ms total)
T10CC 167:419 JLINK_GetDebugInfo(0x104 = JLINKARM_DEBUG_INFO_ITM_ADDR_INDEX) -- Value=0xE0000000  returns 0x00 (0000ms, 12935ms total)
T10CC 167:419 JLINK_GetDebugInfo(0x105 = JLINKARM_DEBUG_INFO_DWT_ADDR_INDEX) -- Value=0xE0001000  returns 0x00 (0000ms, 12935ms total)
T10CC 167:419 JLINK_GetDebugInfo(0x106 = JLINKARM_DEBUG_INFO_FPB_ADDR_INDEX) -- Value=0xE0002000  returns 0x00 (0000ms, 12935ms total)
T10CC 167:419 JLINK_GetDebugInfo(0x107 = JLINKARM_DEBUG_INFO_NVIC_ADDR_INDEX) -- Value=0xE000E000  returns 0x00 (0000ms, 12935ms total)
T10CC 167:419 JLINK_GetDebugInfo(0x10C = JLINKARM_DEBUG_INFO_DBG_ADDR_INDEX) -- Value=0xE000EDF0  returns 0x00 (0000ms, 12935ms total)
T10CC 167:419 JLINK_GetDebugInfo(0x01 = Unknown) -- Value=0x00000001  returns 0x00 (0000ms, 12935ms total)
T10CC 167:419 JLINK_ReadMemU32(0xE000ED00, 0x0001 Items, ...) -- CPU_ReadMem(4 bytes @ 0xE000ED00) - Data: 41 C2 0F 41  returns 1 (0001ms, 12936ms total)
T10CC 167:420 JLINK_GetDebugInfo(0x10F = JLINKARM_DEBUG_INFO_HAS_CORTEX_M_SECURITY_EXT_INDEX) -- Value=0x00000000  returns 0x00 (0000ms, 12936ms total)
T10CC 167:420 JLINK_SetResetType(JLINKARM_CM3_RESET_TYPE_NORMAL)  returns JLINKARM_CM3_RESET_TYPE_NORMAL (0000ms, 12936ms total)
T10CC 167:420 JLINK_Reset() -- CPU is running -- CPU_WriteMem(4 bytes @ 0xE000EDF0) -- CPU is running -- CPU_WriteMem(4 bytes @ 0xE000EDFC)Reset: Halt core after reset via DEMCR.VC_CORERESET. >0x35 TIF>Reset: Reset device via AIRCR.SYSRESETREQ. -- CPU is running -- CPU_WriteMem(4 bytes @ 0xE000ED0C) >0x0D TIF> >0x28 TIF> -- CPU_ReadMem(4 bytes @ 0xE000EDF0) -- CPU_ReadMem(4 bytes @ 0xE000EDF0) -- CPU is running -- CPU_WriteMem(4 bytes @ 0xE000EDF0) -- CPU is running -- CPU_WriteMem(4 bytes @ 0xE000EDFC)
 -- CPU_ReadMem(4 bytes @ 0xE000EDF0) -- CPU_WriteMem(4 bytes @ 0xE0002000) -- CPU_ReadMem(4 bytes @ 0xE000EDFC) -- CPU_ReadMem(4 bytes @ 0xE0001000) (0073ms, 13009ms total)
T10CC 167:493 JLINK_ReadReg(R15 (PC))  returns 0x0800019C (0000ms, 13009ms total)
T10CC 167:493 JLINK_ReadReg(XPSR)  returns 0x01000000 (0000ms, 13009ms total)
T10CC 167:493 JLINK_Halt()  returns 0x00 (0000ms, 13009ms total)
T10CC 167:493 JLINK_ReadMemU32(0xE000EDF0, 0x0001 Items, ...) -- CPU_ReadMem(4 bytes @ 0xE000EDF0) - Data: 03 00 03 00  returns 1 (0001ms, 13010ms total)
T10CC 167:494 JLINK_WriteU32(0xE000EDF0, 0xA05F0003) -- CPU_WriteMem(4 bytes @ 0xE000EDF0)  returns 0 (0001ms, 13011ms total)
T10CC 167:495 JLINK_WriteU32(0xE000EDFC, 0x01000000) -- CPU_WriteMem(4 bytes @ 0xE000EDFC)  returns 0 (0001ms, 13012ms total)
T10CC 167:496 JLINK_GetHWStatus(...)  returns 0x00 (0001ms, 13013ms total)
T10CC 167:497 JLINK_GetNumBPUnits(Type = 0xFFFFFF00)  returns 0x06 (0000ms, 13013ms total)
T10CC 167:497 JLINK_GetNumBPUnits(Type = 0xF0)  returns 0x2000 (0000ms, 13013ms total)
T10CC 167:497 JLINK_GetNumWPUnits()  returns 0x04 (0000ms, 13013ms total)
T10CC 167:497 JLINK_GetSpeed()  returns 0xFA0 (0000ms, 13013ms total)
T10CC 167:497 JLINK_ReadMemU32(0xE000E004, 0x0001 Items, ...) -- CPU_ReadMem(4 bytes @ 0xE000E004) - Data: 02 00 00 00  returns 1 (0001ms, 13014ms total)
T10CC 167:498 JLINK_ReadMemU32(0xE000E004, 0x0001 Items, ...) -- CPU_ReadMem(4 bytes @ 0xE000E004) - Data: 02 00 00 00  returns 1 (0001ms, 13015ms total)
T10CC 167:499 JLINK_WriteMemEx(0xE0001000, 0x001C Bytes, ..., Flags = 0x02000004) - Data: 01 00 00 00 00 00 00 00 00 00 00 00 00 00 00 00 ... -- CPU_WriteMem(28 bytes @ 0xE0001000)  returns 0x1C (0002ms, 13017ms total)
T10CC 167:501 JLINK_ReadReg(R15 (PC))  returns 0x0800019C (0000ms, 13017ms total)
T10CC 167:501 JLINK_ReadReg(XPSR)  returns 0x01000000 (0000ms, 13017ms total)
T10CC 167:506 JLINK_ReadMemEx(0xE0001004, 0x0004 Bytes, ..., Flags = 0x02000000) - Data: 00 00 00 00  returns 0x04 (0000ms, 13017ms total)
T10CC 167:682 JLINK_SetResetType(JLINKARM_CM3_RESET_TYPE_NORMAL)  returns JLINKARM_CM3_RESET_TYPE_NORMAL (0000ms, 13017ms total)
T10CC 167:682 JLINK_Reset() -- CPU_WriteMem(4 bytes @ 0xE000EDF0) -- CPU_WriteMem(4 bytes @ 0xE000EDFC)Reset: Halt core after reset via DEMCR.VC_CORERESET. >0x35 TIF>Reset: Reset device via AIRCR.SYSRESETREQ. -- CPU_WriteMem(4 bytes @ 0xE000ED0C) >0x0D TIF> >0x28 TIF> -- CPU_ReadMem(4 bytes @ 0xE000EDF0) -- CPU_ReadMem(4 bytes @ 0xE000EDF0) -- CPU_WriteMem(4 bytes @ 0xE000EDF0) -- CPU_WriteMem(4 bytes @ 0xE000EDFC) -- CPU_ReadMem(4 bytes @ 0xE000EDF0) -- CPU_WriteMem(4 bytes @ 0xE0002000)
 -- CPU_ReadMem(4 bytes @ 0xE000EDFC) -- CPU_ReadMem(4 bytes @ 0xE0001000) (0074ms, 13091ms total)
T10CC 167:756 JLINK_ReadReg(R15 (PC))  returns 0x0800019C (0000ms, 13091ms total)
T10CC 167:756 JLINK_ReadReg(XPSR)  returns 0x01000000 (0000ms, 13091ms total)
T10CC 167:757 JLINK_ReadMemEx(0x08000188, 0x003C Bytes, ..., Flags = 0x02000000) -- CPU_ReadMem(128 bytes @ 0x08000180) -- Updating C cache (128 bytes @ 0x08000180) -- Read from C cache (60 bytes @ 0x08000188) - Data: DF F8 0C D0 00 F0 58 FB 00 48 00 47 69 AF 00 08 ...  returns 0x3C (0001ms, 13092ms total)
T10CC 167:827 JLINK_ReadMemEx(0x40020400, 0x0014 Bytes, ..., Flags = 0x02000004) -- CPU_ReadMem(20 bytes @ 0x40020400) - Data: 80 02 00 00 80 02 00 00 80 02 00 00 80 02 00 00 ...  returns 0x14 (0001ms, 13093ms total)
T10CC 167:828 JLINK_ReadMemEx(0x40020414, 0x0004 Bytes, ..., Flags = 0x02000004) -- CPU_ReadMem(4 bytes @ 0x40020414) - Data: 80 02 00 00  returns 0x04 (0001ms, 13094ms total)
T10CC 167:829 JLINK_ReadMemEx(0x4002041C, 0x0008 Bytes, ..., Flags = 0x02000004) -- CPU_ReadMem(8 bytes @ 0x4002041C) - Data: 80 02 00 00 80 02 00 00  returns 0x08 (0001ms, 13095ms total)
T10CC 167:830 JLINK_ReadMemEx(0x40020424, 0x0004 Bytes, ..., Flags = 0x02000004) -- CPU_ReadMem(4 bytes @ 0x40020424) - Data: 80 02 00 00  returns 0x04 (0001ms, 13096ms total)
T10CC 167:863 JLINK_ReadMemEx(0x40040400, 0x0008 Bytes, ..., Flags = 0x02000004) -- CPU_ReadMem(8 bytes @ 0x40040400) - Data: 00 00 00 00 00 00 00 00  returns 0x08 (0002ms, 13098ms total)
T10CC 167:865 JLINK_ReadMemEx(0x40040408, 0x0004 Bytes, ..., Flags = 0x02000004) -- CPU_ReadMem(4 bytes @ 0x40040408) - Data: 00 00 00 00  returns 0x04 (0001ms, 13099ms total)
T10CC 167:866 JLINK_ReadMemEx(0x40040410, 0x0008 Bytes, ..., Flags = 0x02000004) -- CPU_ReadMem(8 bytes @ 0x40040410) - Data: 00 00 00 00 00 00 00 00  returns 0x08 (0001ms, 13100ms total)
T10CC 167:867 JLINK_ReadMemEx(0x40040418, 0x0004 Bytes, ..., Flags = 0x02000004) -- CPU_ReadMem(4 bytes @ 0x40040418) - Data: 00 00 00 00  returns 0x04 (0001ms, 13101ms total)
T10CC 167:868 JLINK_ReadMemEx(0x40040440, 0x0004 Bytes, ..., Flags = 0x02000004) -- CPU_ReadMem(4 bytes @ 0x40040440) - Data: 00 00 00 00  returns 0x04 (0001ms, 13102ms total)
T10CC 167:869 JLINK_ReadMemEx(0x40040500, 0x0004 Bytes, ..., Flags = 0x02000004) -- CPU_ReadMem(4 bytes @ 0x40040500) - Data: 00 00 00 00  returns 0x04 (0001ms, 13103ms total)
T10CC 167:870 JLINK_ReadMemEx(0x40040504, 0x0004 Bytes, ..., Flags = 0x02000004) -- CPU_ReadMem(4 bytes @ 0x40040504) - Data: 00 00 00 00  returns 0x04 (0001ms, 13104ms total)
T10CC 167:871 JLINK_ReadMemEx(0x40040508, 0x0004 Bytes, ..., Flags = 0x02000004) -- CPU_ReadMem(4 bytes @ 0x40040508) - Data: 00 00 00 00  returns 0x04 (0001ms, 13105ms total)
T10CC 167:872 JLINK_ReadMemEx(0x4004050C, 0x0004 Bytes, ..., Flags = 0x02000004) -- CPU_ReadMem(4 bytes @ 0x4004050C) - Data: 00 00 00 00  returns 0x04 (0001ms, 13106ms total)
T10CC 167:873 JLINK_ReadMemEx(0x40040510, 0x0004 Bytes, ..., Flags = 0x02000004) -- CPU_ReadMem(4 bytes @ 0x40040510) - Data: 00 00 00 00  returns 0x04 (0001ms, 13107ms total)
T10CC 167:874 JLINK_ReadMemEx(0x40040514, 0x0004 Bytes, ..., Flags = 0x02000004) -- CPU_ReadMem(4 bytes @ 0x40040514) - Data: 00 00 00 00  returns 0x04 (0001ms, 13108ms total)
T10CC 167:875 JLINK_ReadMemEx(0x40040520, 0x0004 Bytes, ..., Flags = 0x02000004) -- CPU_ReadMem(4 bytes @ 0x40040520) - Data: 00 00 00 00  returns 0x04 (0001ms, 13109ms total)
T10CC 167:876 JLINK_ReadMemEx(0x40040524, 0x0004 Bytes, ..., Flags = 0x02000004) -- CPU_ReadMem(4 bytes @ 0x40040524) - Data: 00 00 00 00  returns 0x04 (0001ms, 13110ms total)
T10CC 167:877 JLINK_ReadMemEx(0x40040528, 0x0004 Bytes, ..., Flags = 0x02000004) -- CPU_ReadMem(4 bytes @ 0x40040528) - Data: 00 00 00 00  returns 0x04 (0001ms, 13111ms total)
T10CC 167:878 JLINK_ReadMemEx(0x4004052C, 0x0004 Bytes, ..., Flags = 0x02000004) -- CPU_ReadMem(4 bytes @ 0x4004052C) - Data: 00 00 00 00  returns 0x04 (0001ms, 13112ms total)
T10CC 167:879 JLINK_ReadMemEx(0x40040530, 0x0004 Bytes, ..., Flags = 0x02000004) -- CPU_ReadMem(4 bytes @ 0x40040530) - Data: 00 00 00 00  returns 0x04 (0001ms, 13113ms total)
T10CC 167:880 JLINK_ReadMemEx(0x40040534, 0x0004 Bytes, ..., Flags = 0x02000004) -- CPU_ReadMem(4 bytes @ 0x40040534) - Data: 00 00 00 00  returns 0x04 (0001ms, 13114ms total)
T10CC 167:881 JLINK_ReadMemEx(0x40040540, 0x0004 Bytes, ..., Flags = 0x02000004) -- CPU_ReadMem(4 bytes @ 0x40040540) - Data: 00 00 00 00  returns 0x04 (0001ms, 13115ms total)
T10CC 167:882 JLINK_ReadMemEx(0x40040544, 0x0004 Bytes, ..., Flags = 0x02000004) -- CPU_ReadMem(4 bytes @ 0x40040544) - Data: 00 00 00 00  returns 0x04 (0001ms, 13116ms total)
T10CC 167:883 JLINK_ReadMemEx(0x40040548, 0x0004 Bytes, ..., Flags = 0x02000004) -- CPU_ReadMem(4 bytes @ 0x40040548) - Data: 00 00 00 00  returns 0x04 (0001ms, 13117ms total)
T10CC 167:884 JLINK_ReadMemEx(0x4004054C, 0x0004 Bytes, ..., Flags = 0x02000004) -- CPU_ReadMem(4 bytes @ 0x4004054C) - Data: 00 00 00 00  returns 0x04 (0001ms, 13118ms total)
T10CC 167:885 JLINK_ReadMemEx(0x40040550, 0x0004 Bytes, ..., Flags = 0x02000004) -- CPU_ReadMem(4 bytes @ 0x40040550) - Data: 00 00 00 00  returns 0x04 (0001ms, 13119ms total)
T10CC 167:886 JLINK_ReadMemEx(0x40040554, 0x0004 Bytes, ..., Flags = 0x02000004) -- CPU_ReadMem(4 bytes @ 0x40040554) - Data: 00 00 00 00  returns 0x04 (0001ms, 13120ms total)
T10CC 167:887 JLINK_ReadMemEx(0x40040560, 0x0004 Bytes, ..., Flags = 0x02000004) -- CPU_ReadMem(4 bytes @ 0x40040560) - Data: 00 00 00 00  returns 0x04 (0001ms, 13121ms total)
T10CC 167:888 JLINK_ReadMemEx(0x40040564, 0x0004 Bytes, ..., Flags = 0x02000004) -- CPU_ReadMem(4 bytes @ 0x40040564) - Data: 00 00 00 00  returns 0x04 (0001ms, 13122ms total)
T10CC 167:889 JLINK_ReadMemEx(0x40040568, 0x0004 Bytes, ..., Flags = 0x02000004) -- CPU_ReadMem(4 bytes @ 0x40040568) - Data: 00 00 00 00  returns 0x04 (0001ms, 13123ms total)
T10CC 167:890 JLINK_ReadMemEx(0x4004056C, 0x0004 Bytes, ..., Flags = 0x02000004) -- CPU_ReadMem(4 bytes @ 0x4004056C) - Data: 00 00 00 00  returns 0x04 (0001ms, 13124ms total)
T10CC 167:891 JLINK_ReadMemEx(0x40040570, 0x0004 Bytes, ..., Flags = 0x02000004) -- CPU_ReadMem(4 bytes @ 0x40040570) - Data: 00 00 00 00  returns 0x04 (0001ms, 13125ms total)
T10CC 167:892 JLINK_ReadMemEx(0x40040574, 0x0004 Bytes, ..., Flags = 0x02000004) -- CPU_ReadMem(4 bytes @ 0x40040574) - Data: 00 00 00 00  returns 0x04 (0001ms, 13126ms total)
T10CC 167:893 JLINK_ReadMemEx(0x40040580, 0x0004 Bytes, ..., Flags = 0x02000004) -- CPU_ReadMem(4 bytes @ 0x40040580) - Data: 00 00 00 00  returns 0x04 (0001ms, 13127ms total)
T10CC 167:894 JLINK_ReadMemEx(0x40040584, 0x0004 Bytes, ..., Flags = 0x02000004) -- CPU_ReadMem(4 bytes @ 0x40040584) - Data: 00 00 00 00  returns 0x04 (0001ms, 13128ms total)
T10CC 167:895 JLINK_ReadMemEx(0x40040588, 0x0004 Bytes, ..., Flags = 0x02000004) -- CPU_ReadMem(4 bytes @ 0x40040588) - Data: 00 00 00 00  returns 0x04 (0001ms, 13129ms total)
T10CC 167:896 JLINK_ReadMemEx(0x4004058C, 0x0004 Bytes, ..., Flags = 0x02000004) -- CPU_ReadMem(4 bytes @ 0x4004058C) - Data: 00 00 00 00  returns 0x04 (0001ms, 13130ms total)
T10CC 167:897 JLINK_ReadMemEx(0x40040590, 0x0004 Bytes, ..., Flags = 0x02000004) -- CPU_ReadMem(4 bytes @ 0x40040590) - Data: 00 00 00 00  returns 0x04 (0001ms, 13131ms total)
T10CC 167:898 JLINK_ReadMemEx(0x40040594, 0x0004 Bytes, ..., Flags = 0x02000004) -- CPU_ReadMem(4 bytes @ 0x40040594) - Data: 00 00 00 00  returns 0x04 (0001ms, 13132ms total)
T10CC 167:899 JLINK_ReadMemEx(0x400405A0, 0x0004 Bytes, ..., Flags = 0x02000004) -- CPU_ReadMem(4 bytes @ 0x400405A0) - Data: 00 00 00 00  returns 0x04 (0001ms, 13133ms total)
T10CC 167:900 JLINK_ReadMemEx(0x400405A4, 0x0004 Bytes, ..., Flags = 0x02000004) -- CPU_ReadMem(4 bytes @ 0x400405A4) - Data: 00 00 00 00  returns 0x04 (0001ms, 13134ms total)
T10CC 167:901 JLINK_ReadMemEx(0x400405A8, 0x0004 Bytes, ..., Flags = 0x02000004) -- CPU_ReadMem(4 bytes @ 0x400405A8) - Data: 00 00 00 00  returns 0x04 (0001ms, 13135ms total)
T10CC 167:902 JLINK_ReadMemEx(0x400405AC, 0x0004 Bytes, ..., Flags = 0x02000004) -- CPU_ReadMem(4 bytes @ 0x400405AC) - Data: 00 00 00 00  returns 0x04 (0001ms, 13136ms total)
T10CC 167:903 JLINK_ReadMemEx(0x400405B0, 0x0004 Bytes, ..., Flags = 0x02000004) -- CPU_ReadMem(4 bytes @ 0x400405B0) - Data: 00 00 00 00  returns 0x04 (0001ms, 13137ms total)
T10CC 167:904 JLINK_ReadMemEx(0x400405B4, 0x0004 Bytes, ..., Flags = 0x02000004) -- CPU_ReadMem(4 bytes @ 0x400405B4) - Data: 00 00 00 00  returns 0x04 (0001ms, 13138ms total)
T10CC 167:905 JLINK_ReadMemEx(0x400405C0, 0x0004 Bytes, ..., Flags = 0x02000004) -- CPU_ReadMem(4 bytes @ 0x400405C0) - Data: 00 00 00 00  returns 0x04 (0001ms, 13139ms total)
T10CC 167:906 JLINK_ReadMemEx(0x400405C4, 0x0004 Bytes, ..., Flags = 0x02000004) -- CPU_ReadMem(4 bytes @ 0x400405C4) - Data: 00 00 00 00  returns 0x04 (0001ms, 13140ms total)
T10CC 167:907 JLINK_ReadMemEx(0x400405C8, 0x0004 Bytes, ..., Flags = 0x02000004) -- CPU_ReadMem(4 bytes @ 0x400405C8) - Data: 00 00 00 00  returns 0x04 (0001ms, 13141ms total)
T10CC 167:908 JLINK_ReadMemEx(0x400405CC, 0x0004 Bytes, ..., Flags = 0x02000004) -- CPU_ReadMem(4 bytes @ 0x400405CC) - Data: 00 00 00 00  returns 0x04 (0001ms, 13142ms total)
T10CC 167:909 JLINK_ReadMemEx(0x400405D0, 0x0004 Bytes, ..., Flags = 0x02000004) -- CPU_ReadMem(4 bytes @ 0x400405D0) - Data: 00 00 00 00  returns 0x04 (0001ms, 13143ms total)
T10CC 167:910 JLINK_ReadMemEx(0x400405D4, 0x0004 Bytes, ..., Flags = 0x02000004) -- CPU_ReadMem(4 bytes @ 0x400405D4) - Data: 00 00 00 00  returns 0x04 (0001ms, 13144ms total)
T10CC 167:911 JLINK_ReadMemEx(0x400405E0, 0x0004 Bytes, ..., Flags = 0x02000004) -- CPU_ReadMem(4 bytes @ 0x400405E0) - Data: 00 00 00 00  returns 0x04 (0001ms, 13145ms total)
T10CC 167:912 JLINK_ReadMemEx(0x400405E4, 0x0004 Bytes, ..., Flags = 0x02000004) -- CPU_ReadMem(4 bytes @ 0x400405E4) - Data: 00 00 00 00  returns 0x04 (0001ms, 13146ms total)
T10CC 167:913 JLINK_ReadMemEx(0x400405E8, 0x0004 Bytes, ..., Flags = 0x02000004) -- CPU_ReadMem(4 bytes @ 0x400405E8) - Data: 00 00 00 00  returns 0x04 (0001ms, 13147ms total)
T10CC 167:914 JLINK_ReadMemEx(0x400405EC, 0x0004 Bytes, ..., Flags = 0x02000004) -- CPU_ReadMem(4 bytes @ 0x400405EC) - Data: 00 00 00 00  returns 0x04 (0001ms, 13148ms total)
T10CC 167:915 JLINK_ReadMemEx(0x400405F0, 0x0004 Bytes, ..., Flags = 0x02000004) -- CPU_ReadMem(4 bytes @ 0x400405F0) - Data: 00 00 00 00  returns 0x04 (0001ms, 13149ms total)
T10CC 167:916 JLINK_ReadMemEx(0x400405F4, 0x0004 Bytes, ..., Flags = 0x02000004) -- CPU_ReadMem(4 bytes @ 0x400405F4) - Data: 00 00 00 00  returns 0x04 (0001ms, 13150ms total)
T10CC 167:917 JLINK_ReadMemEx(0x40040600, 0x0004 Bytes, ..., Flags = 0x02000004) -- CPU_ReadMem(4 bytes @ 0x40040600) - Data: 00 00 00 00  returns 0x04 (0001ms, 13151ms total)
T10CC 167:918 JLINK_ReadMemEx(0x40040604, 0x0004 Bytes, ..., Flags = 0x02000004) -- CPU_ReadMem(4 bytes @ 0x40040604) - Data: 00 00 00 00  returns 0x04 (0001ms, 13152ms total)
T10CC 167:919 JLINK_ReadMemEx(0x40040608, 0x0004 Bytes, ..., Flags = 0x02000004) -- CPU_ReadMem(4 bytes @ 0x40040608) - Data: 00 00 00 00  returns 0x04 (0001ms, 13153ms total)
T10CC 167:920 JLINK_ReadMemEx(0x4004060C, 0x0004 Bytes, ..., Flags = 0x02000004) -- CPU_ReadMem(4 bytes @ 0x4004060C) - Data: 00 00 00 00  returns 0x04 (0001ms, 13154ms total)
T10CC 167:921 JLINK_ReadMemEx(0x40040610, 0x0004 Bytes, ..., Flags = 0x02000004) -- CPU_ReadMem(4 bytes @ 0x40040610) - Data: 00 00 00 00  returns 0x04 (0001ms, 13155ms total)
T10CC 167:922 JLINK_ReadMemEx(0x40040614, 0x0004 Bytes, ..., Flags = 0x02000004) -- CPU_ReadMem(4 bytes @ 0x40040614) - Data: 00 00 00 00  returns 0x04 (0001ms, 13156ms total)
T10CC 167:923 JLINK_ReadMemEx(0x40040620, 0x0004 Bytes, ..., Flags = 0x02000004) -- CPU_ReadMem(4 bytes @ 0x40040620) - Data: 00 00 00 00  returns 0x04 (0001ms, 13157ms total)
T10CC 167:924 JLINK_ReadMemEx(0x40040624, 0x0004 Bytes, ..., Flags = 0x02000004) -- CPU_ReadMem(4 bytes @ 0x40040624) - Data: 00 00 00 00  returns 0x04 (0001ms, 13158ms total)
T10CC 167:925 JLINK_ReadMemEx(0x40040628, 0x0004 Bytes, ..., Flags = 0x02000004) -- CPU_ReadMem(4 bytes @ 0x40040628) - Data: 00 00 00 00  returns 0x04 (0001ms, 13159ms total)
T10CC 167:926 JLINK_ReadMemEx(0x4004062C, 0x0004 Bytes, ..., Flags = 0x02000004) -- CPU_ReadMem(4 bytes @ 0x4004062C) - Data: 00 00 00 00  returns 0x04 (0001ms, 13160ms total)
T10CC 167:927 JLINK_ReadMemEx(0x40040630, 0x0004 Bytes, ..., Flags = 0x02000004) -- CPU_ReadMem(4 bytes @ 0x40040630) - Data: 00 00 00 00  returns 0x04 (0001ms, 13161ms total)
T10CC 167:928 JLINK_ReadMemEx(0x40040634, 0x0004 Bytes, ..., Flags = 0x02000004) -- CPU_ReadMem(4 bytes @ 0x40040634) - Data: 00 00 00 00  returns 0x04 (0001ms, 13162ms total)
T10CC 167:929 JLINK_ReadMemEx(0x40040640, 0x0004 Bytes, ..., Flags = 0x02000004) -- CPU_ReadMem(4 bytes @ 0x40040640) - Data: 00 00 00 00  returns 0x04 (0001ms, 13163ms total)
T10CC 167:930 JLINK_ReadMemEx(0x40040644, 0x0004 Bytes, ..., Flags = 0x02000004) -- CPU_ReadMem(4 bytes @ 0x40040644) - Data: 00 00 00 00  returns 0x04 (0001ms, 13164ms total)
T10CC 167:931 JLINK_ReadMemEx(0x40040648, 0x0004 Bytes, ..., Flags = 0x02000004) -- CPU_ReadMem(4 bytes @ 0x40040648) - Data: 00 00 00 00  returns 0x04 (0001ms, 13165ms total)
T10CC 167:932 JLINK_ReadMemEx(0x4004064C, 0x0004 Bytes, ..., Flags = 0x02000004) -- CPU_ReadMem(4 bytes @ 0x4004064C) - Data: 00 00 00 00  returns 0x04 (0001ms, 13166ms total)
T10CC 167:933 JLINK_ReadMemEx(0x40040650, 0x0004 Bytes, ..., Flags = 0x02000004) -- CPU_ReadMem(4 bytes @ 0x40040650) - Data: 00 00 00 00  returns 0x04 (0001ms, 13167ms total)
T10CC 167:934 JLINK_ReadMemEx(0x40040654, 0x0004 Bytes, ..., Flags = 0x02000004) -- CPU_ReadMem(4 bytes @ 0x40040654) - Data: 00 00 00 00  returns 0x04 (0001ms, 13168ms total)
T10CC 167:935 JLINK_ReadMemEx(0x40040660, 0x0004 Bytes, ..., Flags = 0x02000004) -- CPU_ReadMem(4 bytes @ 0x40040660) - Data: 00 00 00 00  returns 0x04 (0001ms, 13169ms total)
T10CC 167:936 JLINK_ReadMemEx(0x40040664, 0x0004 Bytes, ..., Flags = 0x02000004) -- CPU_ReadMem(4 bytes @ 0x40040664) - Data: 00 00 00 00  returns 0x04 (0001ms, 13170ms total)
T10CC 167:937 JLINK_ReadMemEx(0x40040668, 0x0004 Bytes, ..., Flags = 0x02000004) -- CPU_ReadMem(4 bytes @ 0x40040668) - Data: 00 00 00 00  returns 0x04 (0001ms, 13171ms total)
T10CC 167:938 JLINK_ReadMemEx(0x4004066C, 0x0004 Bytes, ..., Flags = 0x02000004) -- CPU_ReadMem(4 bytes @ 0x4004066C) - Data: 00 00 00 00  returns 0x04 (0001ms, 13172ms total)
T10CC 167:939 JLINK_ReadMemEx(0x40040670, 0x0004 Bytes, ..., Flags = 0x02000004) -- CPU_ReadMem(4 bytes @ 0x40040670) - Data: 00 00 00 00  returns 0x04 (0001ms, 13173ms total)
T10CC 167:940 JLINK_ReadMemEx(0x40040674, 0x0004 Bytes, ..., Flags = 0x02000004) -- CPU_ReadMem(4 bytes @ 0x40040674) - Data: 00 00 00 00  returns 0x04 (0001ms, 13174ms total)
T10CC 169:774 JLINK_ReadReg(R0)  returns 0x00000000 (0001ms, 13175ms total)
T10CC 169:775 JLINK_ReadReg(R1)  returns 0x00000000 (0000ms, 13175ms total)
T10CC 169:775 JLINK_ReadReg(R2)  returns 0x00000000 (0000ms, 13175ms total)
T10CC 169:775 JLINK_ReadReg(R3)  returns 0x00000000 (0000ms, 13175ms total)
T10CC 169:775 JLINK_ReadReg(R4)  returns 0x00000000 (0000ms, 13175ms total)
T10CC 169:775 JLINK_ReadReg(R5)  returns 0x00000000 (0000ms, 13175ms total)
T10CC 169:775 JLINK_ReadReg(R6)  returns 0x00000000 (0000ms, 13175ms total)
T10CC 169:775 JLINK_ReadReg(R7)  returns 0x00000000 (0000ms, 13175ms total)
T10CC 169:775 JLINK_ReadReg(R8)  returns 0x00000000 (0000ms, 13175ms total)
T10CC 169:775 JLINK_ReadReg(R9)  returns 0x00000000 (0000ms, 13175ms total)
T10CC 169:775 JLINK_ReadReg(R10)  returns 0x00000000 (0000ms, 13175ms total)
T10CC 169:775 JLINK_ReadReg(R11)  returns 0x00000000 (0000ms, 13175ms total)
T10CC 169:775 JLINK_ReadReg(R12)  returns 0x00000000 (0000ms, 13175ms total)
T10CC 169:775 JLINK_ReadReg(R13 (SP))  returns 0x20003490 (0000ms, 13175ms total)
T10CC 169:775 JLINK_ReadReg(R14)  returns 0xFFFFFFFF (0000ms, 13175ms total)
T10CC 169:775 JLINK_ReadReg(R15 (PC))  returns 0x0800019C (0000ms, 13175ms total)
T10CC 169:775 JLINK_ReadReg(XPSR)  returns 0x01000000 (0000ms, 13175ms total)
T10CC 169:775 JLINK_ReadReg(MSP)  returns 0x20003490 (0000ms, 13175ms total)
T10CC 169:775 JLINK_ReadReg(PSP)  returns 0x00000000 (0000ms, 13175ms total)
T10CC 169:775 JLINK_ReadReg(CFBP)  returns 0x00000000 (0000ms, 13175ms total)
T10CC 169:775 JLINK_ReadReg(FPSCR)  returns 0x00000000 (0004ms, 13179ms total)
T10CC 169:779 JLINK_ReadReg(FPS0)  returns 0x00000000 (0000ms, 13179ms total)
T10CC 169:779 JLINK_ReadReg(FPS1)  returns 0x00000000 (0000ms, 13179ms total)
T10CC 169:779 JLINK_ReadReg(FPS2)  returns 0x00000000 (0000ms, 13179ms total)
T10CC 169:779 JLINK_ReadReg(FPS3)  returns 0x00000000 (0000ms, 13179ms total)
T10CC 169:779 JLINK_ReadReg(FPS4)  returns 0x00000000 (0000ms, 13179ms total)
T10CC 169:779 JLINK_ReadReg(FPS5)  returns 0x00000000 (0000ms, 13179ms total)
T10CC 169:779 JLINK_ReadReg(FPS6)  returns 0x00000000 (0000ms, 13179ms total)
T10CC 169:779 JLINK_ReadReg(FPS7)  returns 0x00000000 (0000ms, 13179ms total)
T10CC 169:779 JLINK_ReadReg(FPS8)  returns 0x00000000 (0000ms, 13179ms total)
T10CC 169:779 JLINK_ReadReg(FPS9)  returns 0x00000000 (0000ms, 13179ms total)
T10CC 169:779 JLINK_ReadReg(FPS10)  returns 0x00000000 (0000ms, 13179ms total)
T10CC 169:779 JLINK_ReadReg(FPS11)  returns 0x00000000 (0000ms, 13179ms total)
T10CC 169:779 JLINK_ReadReg(FPS12)  returns 0x00000000 (0000ms, 13179ms total)
T10CC 169:779 JLINK_ReadReg(FPS13)  returns 0x00000000 (0000ms, 13179ms total)
T10CC 169:779 JLINK_ReadReg(FPS14)  returns 0x00000000 (0000ms, 13179ms total)
T10CC 169:779 JLINK_ReadReg(FPS15)  returns 0x00000000 (0000ms, 13179ms total)
T10CC 169:779 JLINK_ReadReg(FPS16)  returns 0x00000000 (0000ms, 13179ms total)
T10CC 169:779 JLINK_ReadReg(FPS17)  returns 0x00000000 (0000ms, 13179ms total)
T10CC 169:779 JLINK_ReadReg(FPS18)  returns 0x00000000 (0000ms, 13179ms total)
T10CC 169:779 JLINK_ReadReg(FPS19)  returns 0x00000000 (0000ms, 13179ms total)
T10CC 169:779 JLINK_ReadReg(FPS20)  returns 0x00000000 (0000ms, 13179ms total)
T10CC 169:779 JLINK_ReadReg(FPS21)  returns 0x00000000 (0000ms, 13179ms total)
T10CC 169:779 JLINK_ReadReg(FPS22)  returns 0x00000000 (0000ms, 13179ms total)
T10CC 169:779 JLINK_ReadReg(FPS23)  returns 0x00000000 (0000ms, 13179ms total)
T10CC 169:779 JLINK_ReadReg(FPS24)  returns 0x00000000 (0000ms, 13179ms total)
T10CC 169:779 JLINK_ReadReg(FPS25)  returns 0x00000000 (0000ms, 13179ms total)
T10CC 169:779 JLINK_ReadReg(FPS26)  returns 0x00000000 (0000ms, 13179ms total)
T10CC 169:779 JLINK_ReadReg(FPS27)  returns 0x00000000 (0000ms, 13179ms total)
T10CC 169:779 JLINK_ReadReg(FPS28)  returns 0x00000000 (0000ms, 13179ms total)
T10CC 169:779 JLINK_ReadReg(FPS29)  returns 0x00000000 (0000ms, 13179ms total)
T10CC 169:779 JLINK_ReadReg(FPS30)  returns 0x00000000 (0000ms, 13179ms total)
T10CC 169:779 JLINK_ReadReg(FPS31)  returns 0x00000000 (0000ms, 13179ms total)
T10CC 169:880 JLINK_ReadMemEx(0x200000DC, 0x0004 Bytes, ..., Flags = 0x02000000) -- CPU_ReadMem(64 bytes @ 0x200000C0) -- Updating C cache (64 bytes @ 0x200000C0) -- Read from C cache (4 bytes @ 0x200000DC) - Data: 00 00 00 00  returns 0x04 (0001ms, 13180ms total)
T10CC 169:886 JLINK_ReadMemEx(0x200000EC, 0x0004 Bytes, ..., Flags = 0x02000000) -- Read from C cache (4 bytes @ 0x200000EC) - Data: 00 00 00 00  returns 0x04 (0000ms, 13180ms total)
T10CC 169:955 JLINK_ReadMemEx(0x6C000080, 0x0002 Bytes, ..., Flags = 0x02000000) -- CPU_ReadMem(2 bytes @ 0x6C000080) - Data: 00 00  returns 0x02 (0001ms, 13181ms total)
T0E84 169:976 JLINK_ReadMemEx(0x0800019C, 0x0002 Bytes, ..., Flags = 0x02000000) -- Read from C cache (2 bytes @ 0x0800019C) - Data: 06 48  returns 0x02 (0000ms, 13181ms total)
T0E84 169:976 JLINK_SetBPEx(Addr = 0x0800AF68, Type = 0xFFFFFFF2)  returns 0x00000001 (0000ms, 13181ms total)
T0E84 169:976 JLINK_SetBPEx(Addr = 0x080067A4, Type = 0xFFFFFFF2)  returns 0x00000002 (0000ms, 13181ms total)
T0E84 169:976 JLINK_SetBPEx(Addr = 0x080063FE, Type = 0xFFFFFFF2)  returns 0x00000003 (0000ms, 13181ms total)
T0E84 169:976 JLINK_SetBPEx(Addr = 0x08006554, Type = 0xFFFFFFF2)  returns 0x00000004 (0000ms, 13181ms total)
T0E84 169:976 JLINK_SetBPEx(Addr = 0x0800677C, Type = 0xFFFFFFF2)  returns 0x00000005 (0000ms, 13181ms total)
T0E84 169:976 JLINK_SetBPEx(Addr = 0x0800692A, Type = 0xFFFFFFF2)  returns 0x00000006 (0000ms, 13181ms total)
T0E84 169:976 JLINK_Go() -- CPU_WriteMem(4 bytes @ 0xE0002000) -- CPU_WriteMem(4 bytes @ 0xE0002000) -- CPU_WriteMem(4 bytes @ 0xE0002000) -- CPU_WriteMem(4 bytes @ 0xE0002000) -- CPU_WriteMem(4 bytes @ 0xE0002000) -- CPU_WriteMem(4 bytes @ 0xE0002000) -- CPU_ReadMem(4 bytes @ 0xE0001000) -- CPU_WriteMem(4 bytes @ 0xE0002008) -- CPU_WriteMem(4 bytes @ 0xE000200C) -- CPU_WriteMem(4 bytes @ 0xE0002010) -- CPU_WriteMem(4 bytes @ 0xE0002014) -- CPU_WriteMem(4 bytes @ 0xE0002018)
 -- CPU_WriteMem(4 bytes @ 0xE000201C) -- CPU_WriteMem(4 bytes @ 0xE0001004) (0011ms, 13192ms total)
T0E84 170:087 JLINK_IsHalted()  returns TRUE (0003ms, 13195ms total)
T0E84 170:090 JLINK_Halt()  returns 0x00 (0000ms, 13192ms total)
T0E84 170:090 JLINK_IsHalted()  returns TRUE (0000ms, 13192ms total)
T0E84 170:090 JLINK_IsHalted()  returns TRUE (0000ms, 13192ms total)
T0E84 170:090 JLINK_IsHalted()  returns TRUE (0000ms, 13192ms total)
T0E84 170:090 JLINK_ReadReg(R15 (PC))  returns 0x0800AF68 (0000ms, 13192ms total)
T0E84 170:090 JLINK_ReadReg(XPSR)  returns 0x61000000 (0000ms, 13192ms total)
T0E84 170:090 JLINK_ClrBPEx(BPHandle = 0x00000001)  returns 0x00 (0000ms, 13192ms total)
T0E84 170:090 JLINK_ClrBPEx(BPHandle = 0x00000002)  returns 0x00 (0000ms, 13192ms total)
T0E84 170:090 JLINK_ClrBPEx(BPHandle = 0x00000003)  returns 0x00 (0000ms, 13192ms total)
T0E84 170:090 JLINK_ClrBPEx(BPHandle = 0x00000004)  returns 0x00 (0000ms, 13192ms total)
T0E84 170:090 JLINK_ClrBPEx(BPHandle = 0x00000005)  returns 0x00 (0000ms, 13192ms total)
T0E84 170:090 JLINK_ClrBPEx(BPHandle = 0x00000006)  returns 0x00 (0000ms, 13192ms total)
T0E84 170:090 JLINK_ReadMemU32(0xE000ED30, 0x0001 Items, ...) -- CPU_ReadMem(4 bytes @ 0xE000ED30) - Data: 02 00 00 00  returns 1 (0001ms, 13193ms total)
T0E84 170:091 JLINK_ReadMemU32(0xE0001028, 0x0001 Items, ...) -- CPU_ReadMem(4 bytes @ 0xE0001028) - Data: 00 00 00 00  returns 1 (0001ms, 13194ms total)
T0E84 170:092 JLINK_ReadMemU32(0xE0001038, 0x0001 Items, ...) -- CPU_ReadMem(4 bytes @ 0xE0001038) - Data: 00 02 00 00  returns 1 (0001ms, 13195ms total)
T0E84 170:093 JLINK_ReadMemU32(0xE0001048, 0x0001 Items, ...) -- CPU_ReadMem(4 bytes @ 0xE0001048) - Data: 00 00 00 00  returns 1 (0001ms, 13196ms total)
T0E84 170:094 JLINK_ReadMemU32(0xE0001058, 0x0001 Items, ...) -- CPU_ReadMem(4 bytes @ 0xE0001058) - Data: 00 00 00 00  returns 1 (0001ms, 13197ms total)
T0E84 170:095 JLINK_ReadReg(R0)  returns 0x0800AF69 (0000ms, 13197ms total)
T0E84 170:095 JLINK_ReadReg(R1)  returns 0x20003490 (0000ms, 13197ms total)
T0E84 170:095 JLINK_ReadReg(R2)  returns 0x00000000 (0000ms, 13197ms total)
T0E84 170:095 JLINK_ReadReg(R3)  returns 0x08009A37 (0000ms, 13197ms total)
T0E84 170:095 JLINK_ReadReg(R4)  returns 0x0800C838 (0000ms, 13197ms total)
T0E84 170:095 JLINK_ReadReg(R5)  returns 0x0800C838 (0000ms, 13197ms total)
T0E84 170:095 JLINK_ReadReg(R6)  returns 0x00000000 (0000ms, 13197ms total)
T0E84 170:095 JLINK_ReadReg(R7)  returns 0x00000000 (0000ms, 13197ms total)
T0E84 170:095 JLINK_ReadReg(R8)  returns 0x00000000 (0000ms, 13197ms total)
T0E84 170:095 JLINK_ReadReg(R9)  returns 0x00000000 (0000ms, 13197ms total)
T0E84 170:095 JLINK_ReadReg(R10)  returns 0x00000000 (0000ms, 13197ms total)
T0E84 170:095 JLINK_ReadReg(R11)  returns 0x00000000 (0000ms, 13197ms total)
T0E84 170:095 JLINK_ReadReg(R12)  returns 0x00000000 (0000ms, 13197ms total)
T0E84 170:095 JLINK_ReadReg(R13 (SP))  returns 0x20003490 (0000ms, 13197ms total)
T0E84 170:095 JLINK_ReadReg(R14)  returns 0x0800085D (0000ms, 13197ms total)
T0E84 170:095 JLINK_ReadReg(R15 (PC))  returns 0x0800AF68 (0000ms, 13197ms total)
T0E84 170:095 JLINK_ReadReg(XPSR)  returns 0x61000000 (0000ms, 13197ms total)
T0E84 170:095 JLINK_ReadReg(MSP)  returns 0x20003490 (0000ms, 13197ms total)
T0E84 170:095 JLINK_ReadReg(PSP)  returns 0x00000000 (0001ms, 13198ms total)
T0E84 170:096 JLINK_ReadReg(CFBP)  returns 0x00000000 (0000ms, 13198ms total)
T0E84 170:096 JLINK_ReadReg(FPSCR)  returns 0x00000000 (0003ms, 13201ms total)
T0E84 170:099 JLINK_ReadReg(FPS0)  returns 0x00000000 (0000ms, 13201ms total)
T0E84 170:099 JLINK_ReadReg(FPS1)  returns 0x00000000 (0000ms, 13201ms total)
T0E84 170:099 JLINK_ReadReg(FPS2)  returns 0x00000000 (0000ms, 13201ms total)
T0E84 170:099 JLINK_ReadReg(FPS3)  returns 0x00000000 (0000ms, 13201ms total)
T0E84 170:099 JLINK_ReadReg(FPS4)  returns 0x00000000 (0000ms, 13201ms total)
T0E84 170:099 JLINK_ReadReg(FPS5)  returns 0x00000000 (0000ms, 13201ms total)
T0E84 170:099 JLINK_ReadReg(FPS6)  returns 0x00000000 (0000ms, 13201ms total)
T0E84 170:099 JLINK_ReadReg(FPS7)  returns 0x00000000 (0000ms, 13201ms total)
T0E84 170:099 JLINK_ReadReg(FPS8)  returns 0x00000000 (0000ms, 13201ms total)
T0E84 170:099 JLINK_ReadReg(FPS9)  returns 0x00000000 (0000ms, 13201ms total)
T0E84 170:099 JLINK_ReadReg(FPS10)  returns 0x00000000 (0000ms, 13201ms total)
T0E84 170:099 JLINK_ReadReg(FPS11)  returns 0x00000000 (0000ms, 13201ms total)
T0E84 170:099 JLINK_ReadReg(FPS12)  returns 0x00000000 (0001ms, 13202ms total)
T0E84 170:100 JLINK_ReadReg(FPS13)  returns 0x00000000 (0000ms, 13202ms total)
T0E84 170:100 JLINK_ReadReg(FPS14)  returns 0x00000000 (0000ms, 13202ms total)
T0E84 170:100 JLINK_ReadReg(FPS15)  returns 0x00000000 (0000ms, 13202ms total)
T0E84 170:100 JLINK_ReadReg(FPS16)  returns 0x00000000 (0000ms, 13202ms total)
T0E84 170:100 JLINK_ReadReg(FPS17)  returns 0x00000000 (0000ms, 13202ms total)
T0E84 170:100 JLINK_ReadReg(FPS18)  returns 0x00000000 (0000ms, 13202ms total)
T0E84 170:100 JLINK_ReadReg(FPS19)  returns 0x00000000 (0000ms, 13202ms total)
T0E84 170:100 JLINK_ReadReg(FPS20)  returns 0x00000000 (0000ms, 13202ms total)
T0E84 170:100 JLINK_ReadReg(FPS21)  returns 0x00000000 (0000ms, 13202ms total)
T0E84 170:100 JLINK_ReadReg(FPS22)  returns 0x00000000 (0000ms, 13202ms total)
T0E84 170:100 JLINK_ReadReg(FPS23)  returns 0x00000000 (0000ms, 13202ms total)
T0E84 170:100 JLINK_ReadReg(FPS24)  returns 0x00000000 (0000ms, 13202ms total)
T0E84 170:100 JLINK_ReadReg(FPS25)  returns 0x00000000 (0000ms, 13202ms total)
T0E84 170:100 JLINK_ReadReg(FPS26)  returns 0x00000000 (0000ms, 13202ms total)
T0E84 170:100 JLINK_ReadReg(FPS27)  returns 0x00000000 (0000ms, 13202ms total)
T0E84 170:100 JLINK_ReadReg(FPS28)  returns 0x00000000 (0000ms, 13202ms total)
T0E84 170:100 JLINK_ReadReg(FPS29)  returns 0x00000000 (0000ms, 13202ms total)
T0E84 170:100 JLINK_ReadReg(FPS30)  returns 0x00000000 (0000ms, 13202ms total)
T0E84 170:100 JLINK_ReadReg(FPS31)  returns 0x00000000 (0000ms, 13202ms total)
T10CC 170:101 JLINK_ReadMemEx(0x00000000, 0x0004 Bytes, ..., Flags = 0x02000000) -- CPU_ReadMem(4 bytes @ 0x40023844) -- CPU_ReadMem(64 bytes @ 0x08000000) -- Updating C cache (64 bytes @ 0x08000000) -- Read from C cache (4 bytes @ 0x08000000) - Data: 90 34 00 20  returns 0x04 (0002ms, 13204ms total)
T10CC 170:107 JLINK_ReadMemEx(0x200000DC, 0x0004 Bytes, ..., Flags = 0x02000000) -- CPU_ReadMem(64 bytes @ 0x200000C0) -- Updating C cache (64 bytes @ 0x200000C0) -- Read from C cache (4 bytes @ 0x200000DC) - Data: 00 00 00 00  returns 0x04 (0002ms, 13206ms total)
T10CC 170:109 JLINK_ReadMemEx(0x200000EC, 0x0004 Bytes, ..., Flags = 0x02000000) -- Read from C cache (4 bytes @ 0x200000EC) - Data: 00 00 00 00  returns 0x04 (0000ms, 13206ms total)
T10CC 170:113 JLINK_ReadMemEx(0x40040400, 0x0008 Bytes, ..., Flags = 0x02000004) -- CPU_ReadMem(8 bytes @ 0x40040400) - Data: 00 00 00 00 00 00 00 00  returns 0x08 (0001ms, 13207ms total)
T10CC 170:114 JLINK_ReadMemEx(0x40040408, 0x0004 Bytes, ..., Flags = 0x02000004) -- CPU_ReadMem(4 bytes @ 0x40040408) - Data: 00 00 00 00  returns 0x04 (0001ms, 13208ms total)
T10CC 170:115 JLINK_ReadMemEx(0x40040410, 0x0008 Bytes, ..., Flags = 0x02000004) -- CPU_ReadMem(8 bytes @ 0x40040410) - Data: 00 00 00 00 00 00 00 00  returns 0x08 (0001ms, 13209ms total)
T10CC 170:116 JLINK_ReadMemEx(0x40040418, 0x0004 Bytes, ..., Flags = 0x02000004) -- CPU_ReadMem(4 bytes @ 0x40040418) - Data: 00 00 00 00  returns 0x04 (0001ms, 13210ms total)
T10CC 170:117 JLINK_ReadMemEx(0x40040440, 0x0004 Bytes, ..., Flags = 0x02000004) -- CPU_ReadMem(4 bytes @ 0x40040440) - Data: 00 00 00 00  returns 0x04 (0001ms, 13211ms total)
T10CC 170:118 JLINK_ReadMemEx(0x40040500, 0x0004 Bytes, ..., Flags = 0x02000004) -- CPU_ReadMem(4 bytes @ 0x40040500) - Data: 00 00 00 00  returns 0x04 (0001ms, 13212ms total)
T10CC 170:119 JLINK_ReadMemEx(0x40040504, 0x0004 Bytes, ..., Flags = 0x02000004) -- CPU_ReadMem(4 bytes @ 0x40040504) - Data: 00 00 00 00  returns 0x04 (0001ms, 13213ms total)
T10CC 170:120 JLINK_ReadMemEx(0x40040508, 0x0004 Bytes, ..., Flags = 0x02000004) -- CPU_ReadMem(4 bytes @ 0x40040508) - Data: 00 00 00 00  returns 0x04 (0001ms, 13214ms total)
T10CC 170:121 JLINK_ReadMemEx(0x4004050C, 0x0004 Bytes, ..., Flags = 0x02000004) -- CPU_ReadMem(4 bytes @ 0x4004050C) - Data: 00 00 00 00  returns 0x04 (0001ms, 13215ms total)
T10CC 170:122 JLINK_ReadMemEx(0x40040510, 0x0004 Bytes, ..., Flags = 0x02000004) -- CPU_ReadMem(4 bytes @ 0x40040510) - Data: 00 00 00 00  returns 0x04 (0001ms, 13216ms total)
T10CC 170:123 JLINK_ReadMemEx(0x40040514, 0x0004 Bytes, ..., Flags = 0x02000004) -- CPU_ReadMem(4 bytes @ 0x40040514) - Data: 00 00 00 00  returns 0x04 (0001ms, 13217ms total)
T10CC 170:124 JLINK_ReadMemEx(0x40040520, 0x0004 Bytes, ..., Flags = 0x02000004) -- CPU_ReadMem(4 bytes @ 0x40040520) - Data: 00 00 00 00  returns 0x04 (0001ms, 13218ms total)
T10CC 170:125 JLINK_ReadMemEx(0x40040524, 0x0004 Bytes, ..., Flags = 0x02000004) -- CPU_ReadMem(4 bytes @ 0x40040524) - Data: 00 00 00 00  returns 0x04 (0001ms, 13219ms total)
T10CC 170:126 JLINK_ReadMemEx(0x40040528, 0x0004 Bytes, ..., Flags = 0x02000004) -- CPU_ReadMem(4 bytes @ 0x40040528) - Data: 00 00 00 00  returns 0x04 (0001ms, 13220ms total)
T10CC 170:127 JLINK_ReadMemEx(0x4004052C, 0x0004 Bytes, ..., Flags = 0x02000004) -- CPU_ReadMem(4 bytes @ 0x4004052C) - Data: 00 00 00 00  returns 0x04 (0001ms, 13221ms total)
T10CC 170:128 JLINK_ReadMemEx(0x40040530, 0x0004 Bytes, ..., Flags = 0x02000004) -- CPU_ReadMem(4 bytes @ 0x40040530) - Data: 00 00 00 00  returns 0x04 (0001ms, 13222ms total)
T10CC 170:129 JLINK_ReadMemEx(0x40040534, 0x0004 Bytes, ..., Flags = 0x02000004) -- CPU_ReadMem(4 bytes @ 0x40040534) - Data: 00 00 00 00  returns 0x04 (0001ms, 13223ms total)
T10CC 170:130 JLINK_ReadMemEx(0x40040540, 0x0004 Bytes, ..., Flags = 0x02000004) -- CPU_ReadMem(4 bytes @ 0x40040540) - Data: 00 00 00 00  returns 0x04 (0001ms, 13224ms total)
T10CC 170:131 JLINK_ReadMemEx(0x40040544, 0x0004 Bytes, ..., Flags = 0x02000004) -- CPU_ReadMem(4 bytes @ 0x40040544) - Data: 00 00 00 00  returns 0x04 (0001ms, 13225ms total)
T10CC 170:132 JLINK_ReadMemEx(0x40040548, 0x0004 Bytes, ..., Flags = 0x02000004) -- CPU_ReadMem(4 bytes @ 0x40040548) - Data: 00 00 00 00  returns 0x04 (0001ms, 13226ms total)
T10CC 170:133 JLINK_ReadMemEx(0x4004054C, 0x0004 Bytes, ..., Flags = 0x02000004) -- CPU_ReadMem(4 bytes @ 0x4004054C) - Data: 00 00 00 00  returns 0x04 (0001ms, 13227ms total)
T10CC 170:134 JLINK_ReadMemEx(0x40040550, 0x0004 Bytes, ..., Flags = 0x02000004) -- CPU_ReadMem(4 bytes @ 0x40040550) - Data: 00 00 00 00  returns 0x04 (0001ms, 13228ms total)
T10CC 170:135 JLINK_ReadMemEx(0x40040554, 0x0004 Bytes, ..., Flags = 0x02000004) -- CPU_ReadMem(4 bytes @ 0x40040554) - Data: 00 00 00 00  returns 0x04 (0001ms, 13229ms total)
T10CC 170:136 JLINK_ReadMemEx(0x40040560, 0x0004 Bytes, ..., Flags = 0x02000004) -- CPU_ReadMem(4 bytes @ 0x40040560) - Data: 00 00 00 00  returns 0x04 (0001ms, 13230ms total)
T10CC 170:137 JLINK_ReadMemEx(0x40040564, 0x0004 Bytes, ..., Flags = 0x02000004) -- CPU_ReadMem(4 bytes @ 0x40040564) - Data: 00 00 00 00  returns 0x04 (0001ms, 13231ms total)
T10CC 170:138 JLINK_ReadMemEx(0x40040568, 0x0004 Bytes, ..., Flags = 0x02000004) -- CPU_ReadMem(4 bytes @ 0x40040568) - Data: 00 00 00 00  returns 0x04 (0001ms, 13232ms total)
T10CC 170:139 JLINK_ReadMemEx(0x4004056C, 0x0004 Bytes, ..., Flags = 0x02000004) -- CPU_ReadMem(4 bytes @ 0x4004056C) - Data: 00 00 00 00  returns 0x04 (0001ms, 13233ms total)
T10CC 170:140 JLINK_ReadMemEx(0x40040570, 0x0004 Bytes, ..., Flags = 0x02000004) -- CPU_ReadMem(4 bytes @ 0x40040570) - Data: 00 00 00 00  returns 0x04 (0001ms, 13234ms total)
T10CC 170:141 JLINK_ReadMemEx(0x40040574, 0x0004 Bytes, ..., Flags = 0x02000004) -- CPU_ReadMem(4 bytes @ 0x40040574) - Data: 00 00 00 00  returns 0x04 (0001ms, 13235ms total)
T10CC 170:142 JLINK_ReadMemEx(0x40040580, 0x0004 Bytes, ..., Flags = 0x02000004) -- CPU_ReadMem(4 bytes @ 0x40040580) - Data: 00 00 00 00  returns 0x04 (0001ms, 13236ms total)
T10CC 170:143 JLINK_ReadMemEx(0x40040584, 0x0004 Bytes, ..., Flags = 0x02000004) -- CPU_ReadMem(4 bytes @ 0x40040584) - Data: 00 00 00 00  returns 0x04 (0001ms, 13237ms total)
T10CC 170:144 JLINK_ReadMemEx(0x40040588, 0x0004 Bytes, ..., Flags = 0x02000004) -- CPU_ReadMem(4 bytes @ 0x40040588) - Data: 00 00 00 00  returns 0x04 (0001ms, 13238ms total)
T10CC 170:145 JLINK_ReadMemEx(0x4004058C, 0x0004 Bytes, ..., Flags = 0x02000004) -- CPU_ReadMem(4 bytes @ 0x4004058C) - Data: 00 00 00 00  returns 0x04 (0001ms, 13239ms total)
T10CC 170:146 JLINK_ReadMemEx(0x40040590, 0x0004 Bytes, ..., Flags = 0x02000004) -- CPU_ReadMem(4 bytes @ 0x40040590) - Data: 00 00 00 00  returns 0x04 (0001ms, 13240ms total)
T10CC 170:147 JLINK_ReadMemEx(0x40040594, 0x0004 Bytes, ..., Flags = 0x02000004) -- CPU_ReadMem(4 bytes @ 0x40040594) - Data: 00 00 00 00  returns 0x04 (0001ms, 13241ms total)
T10CC 170:148 JLINK_ReadMemEx(0x400405A0, 0x0004 Bytes, ..., Flags = 0x02000004) -- CPU_ReadMem(4 bytes @ 0x400405A0) - Data: 00 00 00 00  returns 0x04 (0001ms, 13242ms total)
T10CC 170:149 JLINK_ReadMemEx(0x400405A4, 0x0004 Bytes, ..., Flags = 0x02000004) -- CPU_ReadMem(4 bytes @ 0x400405A4) - Data: 00 00 00 00  returns 0x04 (0001ms, 13243ms total)
T10CC 170:150 JLINK_ReadMemEx(0x400405A8, 0x0004 Bytes, ..., Flags = 0x02000004) -- CPU_ReadMem(4 bytes @ 0x400405A8) - Data: 00 00 00 00  returns 0x04 (0001ms, 13244ms total)
T10CC 170:151 JLINK_ReadMemEx(0x400405AC, 0x0004 Bytes, ..., Flags = 0x02000004) -- CPU_ReadMem(4 bytes @ 0x400405AC) - Data: 00 00 00 00  returns 0x04 (0001ms, 13245ms total)
T10CC 170:152 JLINK_ReadMemEx(0x400405B0, 0x0004 Bytes, ..., Flags = 0x02000004) -- CPU_ReadMem(4 bytes @ 0x400405B0) - Data: 00 00 00 00  returns 0x04 (0001ms, 13246ms total)
T10CC 170:153 JLINK_ReadMemEx(0x400405B4, 0x0004 Bytes, ..., Flags = 0x02000004) -- CPU_ReadMem(4 bytes @ 0x400405B4) - Data: 00 00 00 00  returns 0x04 (0001ms, 13247ms total)
T10CC 170:154 JLINK_ReadMemEx(0x400405C0, 0x0004 Bytes, ..., Flags = 0x02000004) -- CPU_ReadMem(4 bytes @ 0x400405C0) - Data: 00 00 00 00  returns 0x04 (0001ms, 13248ms total)
T10CC 170:155 JLINK_ReadMemEx(0x400405C4, 0x0004 Bytes, ..., Flags = 0x02000004) -- CPU_ReadMem(4 bytes @ 0x400405C4) - Data: 00 00 00 00  returns 0x04 (0001ms, 13249ms total)
T10CC 170:156 JLINK_ReadMemEx(0x400405C8, 0x0004 Bytes, ..., Flags = 0x02000004) -- CPU_ReadMem(4 bytes @ 0x400405C8) - Data: 00 00 00 00  returns 0x04 (0001ms, 13250ms total)
T10CC 170:157 JLINK_ReadMemEx(0x400405CC, 0x0004 Bytes, ..., Flags = 0x02000004) -- CPU_ReadMem(4 bytes @ 0x400405CC) - Data: 00 00 00 00  returns 0x04 (0001ms, 13251ms total)
T10CC 170:158 JLINK_ReadMemEx(0x400405D0, 0x0004 Bytes, ..., Flags = 0x02000004) -- CPU_ReadMem(4 bytes @ 0x400405D0) - Data: 00 00 00 00  returns 0x04 (0001ms, 13252ms total)
T10CC 170:159 JLINK_ReadMemEx(0x400405D4, 0x0004 Bytes, ..., Flags = 0x02000004) -- CPU_ReadMem(4 bytes @ 0x400405D4) - Data: 00 00 00 00  returns 0x04 (0001ms, 13253ms total)
T10CC 170:160 JLINK_ReadMemEx(0x400405E0, 0x0004 Bytes, ..., Flags = 0x02000004) -- CPU_ReadMem(4 bytes @ 0x400405E0) - Data: 00 00 00 00  returns 0x04 (0001ms, 13254ms total)
T10CC 170:161 JLINK_ReadMemEx(0x400405E4, 0x0004 Bytes, ..., Flags = 0x02000004) -- CPU_ReadMem(4 bytes @ 0x400405E4) - Data: 00 00 00 00  returns 0x04 (0001ms, 13255ms total)
T10CC 170:162 JLINK_ReadMemEx(0x400405E8, 0x0004 Bytes, ..., Flags = 0x02000004) -- CPU_ReadMem(4 bytes @ 0x400405E8) - Data: 00 00 00 00  returns 0x04 (0001ms, 13256ms total)
T10CC 170:163 JLINK_ReadMemEx(0x400405EC, 0x0004 Bytes, ..., Flags = 0x02000004) -- CPU_ReadMem(4 bytes @ 0x400405EC) - Data: 00 00 00 00  returns 0x04 (0001ms, 13257ms total)
T10CC 170:164 JLINK_ReadMemEx(0x400405F0, 0x0004 Bytes, ..., Flags = 0x02000004) -- CPU_ReadMem(4 bytes @ 0x400405F0) - Data: 00 00 00 00  returns 0x04 (0001ms, 13258ms total)
T10CC 170:165 JLINK_ReadMemEx(0x400405F4, 0x0004 Bytes, ..., Flags = 0x02000004) -- CPU_ReadMem(4 bytes @ 0x400405F4) - Data: 00 00 00 00  returns 0x04 (0001ms, 13259ms total)
T10CC 170:166 JLINK_ReadMemEx(0x40040600, 0x0004 Bytes, ..., Flags = 0x02000004) -- CPU_ReadMem(4 bytes @ 0x40040600) - Data: 00 00 00 00  returns 0x04 (0001ms, 13260ms total)
T10CC 170:167 JLINK_ReadMemEx(0x40040604, 0x0004 Bytes, ..., Flags = 0x02000004) -- CPU_ReadMem(4 bytes @ 0x40040604) - Data: 00 00 00 00  returns 0x04 (0001ms, 13261ms total)
T10CC 170:168 JLINK_ReadMemEx(0x40040608, 0x0004 Bytes, ..., Flags = 0x02000004) -- CPU_ReadMem(4 bytes @ 0x40040608) - Data: 00 00 00 00  returns 0x04 (0001ms, 13262ms total)
T10CC 170:169 JLINK_ReadMemEx(0x4004060C, 0x0004 Bytes, ..., Flags = 0x02000004) -- CPU_ReadMem(4 bytes @ 0x4004060C) - Data: 00 00 00 00  returns 0x04 (0001ms, 13263ms total)
T10CC 170:170 JLINK_ReadMemEx(0x40040610, 0x0004 Bytes, ..., Flags = 0x02000004) -- CPU_ReadMem(4 bytes @ 0x40040610) - Data: 00 00 00 00  returns 0x04 (0001ms, 13264ms total)
T10CC 170:171 JLINK_ReadMemEx(0x40040614, 0x0004 Bytes, ..., Flags = 0x02000004) -- CPU_ReadMem(4 bytes @ 0x40040614) - Data: 00 00 00 00  returns 0x04 (0001ms, 13265ms total)
T10CC 170:172 JLINK_ReadMemEx(0x40040620, 0x0004 Bytes, ..., Flags = 0x02000004) -- CPU_ReadMem(4 bytes @ 0x40040620) - Data: 00 00 00 00  returns 0x04 (0001ms, 13266ms total)
T10CC 170:173 JLINK_ReadMemEx(0x40040624, 0x0004 Bytes, ..., Flags = 0x02000004) -- CPU_ReadMem(4 bytes @ 0x40040624) - Data: 00 00 00 00  returns 0x04 (0001ms, 13267ms total)
T10CC 170:174 JLINK_ReadMemEx(0x40040628, 0x0004 Bytes, ..., Flags = 0x02000004) -- CPU_ReadMem(4 bytes @ 0x40040628) - Data: 00 00 00 00  returns 0x04 (0001ms, 13268ms total)
T10CC 170:175 JLINK_ReadMemEx(0x4004062C, 0x0004 Bytes, ..., Flags = 0x02000004) -- CPU_ReadMem(4 bytes @ 0x4004062C) - Data: 00 00 00 00  returns 0x04 (0001ms, 13269ms total)
T10CC 170:176 JLINK_ReadMemEx(0x40040630, 0x0004 Bytes, ..., Flags = 0x02000004) -- CPU_ReadMem(4 bytes @ 0x40040630) - Data: 00 00 00 00  returns 0x04 (0001ms, 13270ms total)
T10CC 170:177 JLINK_ReadMemEx(0x40040634, 0x0004 Bytes, ..., Flags = 0x02000004) -- CPU_ReadMem(4 bytes @ 0x40040634) - Data: 00 00 00 00  returns 0x04 (0001ms, 13271ms total)
T10CC 170:178 JLINK_ReadMemEx(0x40040640, 0x0004 Bytes, ..., Flags = 0x02000004) -- CPU_ReadMem(4 bytes @ 0x40040640) - Data: 00 00 00 00  returns 0x04 (0001ms, 13272ms total)
